
T1270 000:389 SEGGER J-Link V4.80g Log File (0001ms, 0274ms total)
T1270 000:389 DLL Compiled: Feb 13 2014 20:50:02 (0001ms, 0274ms total)
T1270 000:389 Logging started @ 2014-11-10 21:37 (0001ms, 0274ms total)
T1270 000:390 JLINK_SetWarnOutHandler(...) (0000ms, 0274ms total)
T1270 000:390 JLINK_OpenEx(...)
Firmware: J-Link ARM V8 compiled Nov 25 2013 19:20:08
Hardware: V8.00
S/N: 17935099
Feature(s): RDI,FlashDL,FlashBP,JFlash  returns O.K. (0271ms, 0545ms total)
T1270 000:661 JLINK_SetErrorOutHandler(...) (0000ms, 0545ms total)
T1270 000:661 JLINK_ExecCommand("ProjectFile = "F:\Code\Code_keil\步进电机\USER\JLinkSettings.ini"", ...)  returns 0x00 (0001ms, 0546ms total)
T1270 000:662 JLINK_ExecCommand("Device = STM32F103RC", ...)Device "STM32F103RC" selected (256 KB flash, 48 KB RAM).  returns 0x00 (0001ms, 0547ms total)
T1270 000:663 JLINK_ExecCommand("DisableConnectionTimeout", ...)  returns 0x01 (0000ms, 0547ms total)
T1270 000:663 JLINK_GetHardwareVersion()  returns 0x13880 (0000ms, 0547ms total)
T1270 000:663 JLINK_GetDLLVersion()  returns 48007 (0000ms, 0547ms total)
T1270 000:663 JLINK_GetFirmwareString(...) (0000ms, 0547ms total)
T1270 000:664 JLINK_GetDLLVersion()  returns 48007 (0000ms, 0547ms total)
T1270 000:664 JLINK_GetCompileDateTime() (0000ms, 0547ms total)
T1270 000:664 JLINK_GetFirmwareString(...) (0000ms, 0547ms total)
T1270 000:665 JLINK_GetHardwareVersion()  returns 0x13880 (0000ms, 0547ms total)
T1270 000:665 JLINK_TIF_Select(JLINKARM_TIF_SWD)  returns 0x00 (0005ms, 0552ms total)
T1270 000:670 JLINK_SetSpeed(5000) (0001ms, 0553ms total)
T1270 000:671 JLINK_GetId() >0x108 TIF>Found SWD-DP with ID 0x1BA01477 >0x0D TIF> >0x28 TIF> >0x0D TIF> >0x28 TIF> >0x0D TIF> >0x21 TIF> >0x0D TIF> >0x28 TIF> >0x0D TIF> >0x28 TIF> >0x0D TIF> >0x28 TIF> >0x0D TIF> >0x21 TIF> >0x0D TIF> >0x21 TIF> >0x0D TIF> >0x28 TIF> >0x0D TIF> >0x21 TIF> >0x0D TIF> >0x21 TIF> >0x108 TIF>Found SWD-DP with ID 0x1BA01477 >0x0D TIF> >0x21 TIF> >0x0D TIF> >0x28 TIF> >0x0D TIF> >0x28 TIF> >0x0D TIF> >0x21 TIF> >0x0D TIF> >0x28 TIF> >0x0D TIF> >0x21 TIF> >0x0D TIF> >0x21 TIF>
 >0x0D TIF> >0x21 TIF> >0x0D TIF> >0x21 TIF> >0x0D TIF> >0x28 TIF> >0x0D TIF> >0x28 TIF> >0x0D TIF> >0x21 TIF> >0x0D TIF> >0x28 TIF> >0x0D TIF> >0x28 TIF> >0x0D TIF> >0x28 TIF> >0x0D TIF> >0x21 TIF> >0x0D TIF> >0x21 TIF> >0x0D TIF> >0x28 TIF> >0x0D TIF> >0x21 TIF> >0x0D TIF> >0x21 TIF>Found Cortex-M3 r1p1, Little endian. -- CPU_WriteMem(4 bytes @ 0xE0002000) -- CPU_ReadMem(4 bytes @ 0xE000EDF0) -- CPU_ReadMem(4 bytes @ 0xE0002000)FPUnit: 6 code (BP) slots and 2 literal slots
 -- CPU_ReadMem(4 bytes @ 0xE000EDFC) -- CPU_ReadMem(4 bytes @ 0xE0001000) -- CPU_WriteMem(4 bytes @ 0xE0001000) -- CPU_ReadMem(4 bytes @ 0xE00FF010)TPIU fitted. -- CPU_ReadMem(4 bytes @ 0xE00FF014)ETM fitted. -- CPU_ReadMem(4 bytes @ 0xE00FF018) >0x0D TIF> >0x21 TIF>  returns 0x1BA01477 (0083ms, 0636ms total)
T1270 000:754 JLINK_GetDeviceFamily()  returns 3 (0000ms, 0636ms total)
T1270 000:754 JLINK_ReadMem (0xE00FFFF0, 0x0010 Bytes, ...) -- CPU is running -- CPU_ReadMem(16 bytes @ 0xE00FFFF0) -- Data:  0D 00 00 00 10 00 00 00 05 00 00 00 B1 00 00 00  returns 0x00 (0001ms, 0637ms total)
T1270 000:755 JLINK_ReadMem (0xE00FFFD0, 0x0020 Bytes, ...) -- CPU is running -- CPU_ReadMem(32 bytes @ 0xE00FFFD0) -- Data:  00 00 00 00 00 00 00 00 00 00 00 00 00 00 00 00 ...  returns 0x00 (0001ms, 0638ms total)
T1270 000:756 JLINK_ReadMem (0xE00FF000, 0x0018 Bytes, ...) -- CPU is running -- CPU_ReadMem(24 bytes @ 0xE00FF000) -- Data:  03 F0 F0 FF 03 20 F0 FF 03 30 F0 FF 03 10 F0 FF ...  returns 0x00 (0001ms, 0639ms total)
T1270 000:757 JLINK_ReadMemU32(0xE000ED00, 0x0001 Items, ...) -- CPU is running -- CPU_ReadMem(4 bytes @ 0xE000ED00) -- Data:  31 C2 1F 41  returns 0x01 (0001ms, 0640ms total)
T1270 000:758 JLINK_SetResetType(JLINKARM_RESET_TYPE_NORMAL)  returns JLINKARM_RESET_TYPE_NORMAL (0000ms, 0640ms total)
T1270 000:758 JLINK_Reset() -- CPU is running -- CPU_WriteMem(4 bytes @ 0xE000EDF0) -- CPU is running -- CPU_WriteMem(4 bytes @ 0xE000EDFC) >0x35 TIF> -- CPU is running -- CPU_WriteMem(4 bytes @ 0xE000ED0C) -- CPU is running -- CPU_ReadMem(4 bytes @ 0xE000EDF0) -- CPU is running -- CPU_ReadMem(4 bytes @ 0xE000EDF0) -- CPU is running -- CPU_WriteMem(4 bytes @ 0xE000EDF0) -- CPU is running -- CPU_WriteMem(4 bytes @ 0xE000EDFC) -- CPU is running -- CPU_ReadMem(4 bytes @ 0xE000EDF0)
 -- CPU_WriteMem(4 bytes @ 0xE0002000) -- CPU_ReadMem(4 bytes @ 0xE000EDFC) -- CPU_ReadMem(4 bytes @ 0xE0001000) (0023ms, 0663ms total)
T1270 000:781 JLINK_ReadReg(R15 (PC))  returns 0x08000838 (0000ms, 0663ms total)
T1270 000:781 JLINK_ReadReg(XPSR)  returns 0x01000000 (0000ms, 0663ms total)
T1270 000:781 JLINK_Halt()  returns 0x00 (0000ms, 0663ms total)
T1270 000:781 JLINK_IsHalted()  returns TRUE (0000ms, 0663ms total)
T1270 000:781 JLINK_ReadMemU32(0xE000EDF0, 0x0001 Items, ...) -- CPU_ReadMem(4 bytes @ 0xE000EDF0) -- Data:  03 00 03 00  returns 0x01 (0001ms, 0664ms total)
T1270 000:782 JLINK_WriteU32(0xE000EDF0, 0xA05F0003) -- CPU_WriteMem(4 bytes @ 0xE000EDF0)  returns 0x00 (0001ms, 0665ms total)
T1270 000:783 JLINK_WriteU32(0xE000EDFC, 0x01000000) -- CPU_WriteMem(4 bytes @ 0xE000EDFC)  returns 0x00 (0001ms, 0666ms total)
T1270 000:785 JLINK_GetHWStatus(...)  returns 0x00 (0000ms, 0666ms total)
T1270 000:785 JLINK_GetNumBPUnits(Type = 0xFFFFFF00)  returns 0x06 (0000ms, 0666ms total)
T1270 000:785 JLINK_GetNumBPUnits(Type = 0xF0)  returns 0x2000 (0000ms, 0666ms total)
T1270 000:785 JLINK_GetNumWPUnits()  returns 0x04 (0001ms, 0667ms total)
T1270 000:786 JLINK_GetSpeed()  returns 0xFA0 (0000ms, 0667ms total)
T1270 000:786 JLINK_ReadMemU32(0xE000E004, 0x0001 Items, ...) -- CPU_ReadMem(4 bytes @ 0xE000E004) -- Data:  01 00 00 00  returns 0x01 (0002ms, 0669ms total)
T1270 000:788 JLINK_ReadMemU32(0xE000E004, 0x0001 Items, ...) -- CPU_ReadMem(4 bytes @ 0xE000E004) -- Data:  01 00 00 00  returns 0x01 (0001ms, 0670ms total)
T1270 000:789 JLINK_WriteMem(0xE0001000, 0x001C Bytes, ...) -- Data:  01 00 00 00 00 00 00 00 00 00 00 00 00 00 00 00 ... -- CPU_WriteMem(28 bytes @ 0xE0001000)  returns 0x1C (0001ms, 0671ms total)
T1270 000:790 JLINK_ReadMem (0xE0001000, 0x001C Bytes, ...) -- CPU_ReadMem(28 bytes @ 0xE0001000) -- Data:  01 00 00 40 00 00 00 00 00 00 00 00 00 00 00 00 ...  returns 0x00 (0001ms, 0672ms total)
T1270 000:791 JLINK_ReadReg(R15 (PC))  returns 0x08000838 (0000ms, 0672ms total)
T1270 000:791 JLINK_ReadReg(XPSR)  returns 0x01000000 (0000ms, 0672ms total)
T1270 000:883 JLINK_SetResetType(JLINKARM_RESET_TYPE_NORMAL)  returns JLINKARM_RESET_TYPE_NORMAL (0000ms, 0672ms total)
T1270 000:883 JLINK_Reset() -- CPU_WriteMem(4 bytes @ 0xE000EDF0) -- CPU_WriteMem(4 bytes @ 0xE000EDFC) >0x35 TIF> -- CPU_WriteMem(4 bytes @ 0xE000ED0C) -- CPU_ReadMem(4 bytes @ 0xE000EDF0) -- CPU_ReadMem(4 bytes @ 0xE000EDF0) -- CPU_WriteMem(4 bytes @ 0xE000EDF0) -- CPU_WriteMem(4 bytes @ 0xE000EDFC) -- CPU is running -- CPU_ReadMem(4 bytes @ 0xE000EDF0) -- CPU_WriteMem(4 bytes @ 0xE0002000) -- CPU_ReadMem(4 bytes @ 0xE000EDFC) -- CPU_ReadMem(4 bytes @ 0xE0001000) (0024ms, 0696ms total)
T1270 000:907 JLINK_ReadReg(R15 (PC))  returns 0x08000838 (0000ms, 0696ms total)
T1270 000:907 JLINK_ReadReg(XPSR)  returns 0x01000000 (0000ms, 0696ms total)
T1270 000:908 JLINK_ReadMem (0x08000838, 0x003C Bytes, ...) -- CPU_ReadMem(128 bytes @ 0x08000800) -- Updating C cache (128 bytes @ 0x08000800) -- Read from C cache (60 bytes @ 0x08000838) -- Data:  09 48 80 47 09 48 00 47 FE E7 FE E7 FE E7 FE E7 ...  returns 0x00 (0002ms, 0698ms total)
T1270 001:392 JLINK_ReadMem (0x2000012C, 0x0001 Bytes, ...) -- CPU_ReadMem(64 bytes @ 0x20000100) -- Updating C cache (64 bytes @ 0x20000100) -- Read from C cache (1 bytes @ 0x2000012C) -- Data:  55  returns 0x00 (0003ms, 0701ms total)
T2970 001:422 JLINK_SetBPEx(Addr = 0x0800058A, Type = 0xFFFFFFF2)  returns 0x00000001 (0000ms, 0701ms total)
T2970 001:422 JLINK_Go() -- CPU_WriteMem(4 bytes @ 0xE0002000) -- CPU_WriteMem(4 bytes @ 0xE0002008) -- CPU_WriteMem(4 bytes @ 0xE000200C) -- CPU_WriteMem(4 bytes @ 0xE0002010) -- CPU_WriteMem(4 bytes @ 0xE0002014) -- CPU_WriteMem(4 bytes @ 0xE0002018) -- CPU_WriteMem(4 bytes @ 0xE000201C) -- CPU_WriteMem(4 bytes @ 0xE0001004) (0010ms, 0711ms total)
T2970 001:532 JLINK_IsHalted()  returns TRUE (0003ms, 0714ms total)
T2970 001:535 JLINK_Halt()  returns 0x00 (0000ms, 0711ms total)
T2970 001:535 JLINK_IsHalted()  returns TRUE (0000ms, 0711ms total)
T2970 001:535 JLINK_IsHalted()  returns TRUE (0000ms, 0711ms total)
T2970 001:535 JLINK_IsHalted()  returns TRUE (0000ms, 0711ms total)
T2970 001:535 JLINK_ReadReg(R15 (PC))  returns 0x0800058A (0000ms, 0711ms total)
T2970 001:535 JLINK_ReadReg(XPSR)  returns 0x61000000 (0000ms, 0711ms total)
T2970 001:535 JLINK_ClrBPEx(BPHandle = 0x00000001)  returns 0x00 (0000ms, 0711ms total)
T2970 001:535 JLINK_ReadMemU32(0xE000ED30, 0x0001 Items, ...) -- CPU_ReadMem(4 bytes @ 0xE000ED30) -- Data:  03 00 00 00  returns 0x01 (0001ms, 0712ms total)
T2970 001:536 JLINK_ReadMemU32(0xE0001028, 0x0001 Items, ...) -- CPU_ReadMem(4 bytes @ 0xE0001028) -- Data:  00 00 00 00  returns 0x01 (0001ms, 0713ms total)
T2970 001:537 JLINK_ReadMemU32(0xE0001038, 0x0001 Items, ...) -- CPU_ReadMem(4 bytes @ 0xE0001038) -- Data:  00 02 00 00  returns 0x01 (0001ms, 0714ms total)
T2970 001:538 JLINK_ReadMemU32(0xE0001048, 0x0001 Items, ...) -- CPU_ReadMem(4 bytes @ 0xE0001048) -- Data:  00 00 00 00  returns 0x01 (0001ms, 0715ms total)
T2970 001:539 JLINK_ReadMemU32(0xE0001058, 0x0001 Items, ...) -- CPU_ReadMem(4 bytes @ 0xE0001058) -- Data:  00 00 00 00  returns 0x01 (0001ms, 0716ms total)
T2970 001:540 JLINK_ReadReg(R0)  returns 0x200001B0 (0000ms, 0716ms total)
T2970 001:540 JLINK_ReadReg(R1)  returns 0x200003B0 (0000ms, 0716ms total)
T2970 001:540 JLINK_ReadReg(R2)  returns 0x200003B0 (0000ms, 0716ms total)
T2970 001:540 JLINK_ReadReg(R3)  returns 0x200003B0 (0000ms, 0716ms total)
T2970 001:540 JLINK_ReadReg(R4)  returns 0x00000000 (0000ms, 0716ms total)
T2970 001:540 JLINK_ReadReg(R5)  returns 0x20000150 (0000ms, 0716ms total)
T2970 001:540 JLINK_ReadReg(R6)  returns 0x00000000 (0000ms, 0716ms total)
T2970 001:540 JLINK_ReadReg(R7)  returns 0x00000000 (0000ms, 0716ms total)
T2970 001:540 JLINK_ReadReg(R8)  returns 0x00000000 (0000ms, 0716ms total)
T2970 001:540 JLINK_ReadReg(R9)  returns 0x20000160 (0000ms, 0716ms total)
T2970 001:540 JLINK_ReadReg(R10)  returns 0x0800B88C (0000ms, 0716ms total)
T2970 001:541 JLINK_ReadReg(R11)  returns 0x00000000 (0000ms, 0717ms total)
T2970 001:541 JLINK_ReadReg(R12)  returns 0x20000190 (0000ms, 0717ms total)
T2970 001:541 JLINK_ReadReg(R13 (SP))  returns 0x200007B0 (0000ms, 0717ms total)
T2970 001:541 JLINK_ReadReg(R14)  returns 0x080001DB (0000ms, 0717ms total)
T2970 001:541 JLINK_ReadReg(R15 (PC))  returns 0x0800058A (0000ms, 0717ms total)
T2970 001:541 JLINK_ReadReg(XPSR)  returns 0x61000000 (0000ms, 0717ms total)
T2970 001:541 JLINK_ReadReg(MSP)  returns 0x200007B0 (0000ms, 0717ms total)
T2970 001:541 JLINK_ReadReg(PSP)  returns 0x20000800 (0000ms, 0717ms total)
T2970 001:541 JLINK_ReadReg(CFBP)  returns 0x00000000 (0000ms, 0717ms total)
T1270 001:541 JLINK_ReadMem (0x00000000, 0x0001 Bytes, ...) -- CPU_ReadMem(4 bytes @ 0x00000004) -- CPU_ReadMem(64 bytes @ 0x08000000) -- Updating C cache (64 bytes @ 0x08000000) -- Read from C cache (1 bytes @ 0x08000000) -- Data:  B0  returns 0x00 (0003ms, 0720ms total)
T1270 001:544 JLINK_ReadMemU32(0xE0001004, 0x0001 Items, ...) -- CPU_ReadMem(4 bytes @ 0xE0001004) -- Data:  54 17 00 00  returns 0x01 (0001ms, 0721ms total)
T1270 001:545 JLINK_ReadMem (0x2000012C, 0x0001 Bytes, ...) -- CPU_ReadMem(64 bytes @ 0x20000100) -- Updating C cache (64 bytes @ 0x20000100) -- Read from C cache (1 bytes @ 0x2000012C) -- Data:  00  returns 0x00 (0002ms, 0723ms total)
T2970 003:377 JLINK_ReadMem (0x0800058A, 0x0002 Bytes, ...) -- CPU_ReadMem(64 bytes @ 0x08000580) -- Updating C cache (64 bytes @ 0x08000580) -- Read from C cache (2 bytes @ 0x0800058A) -- Data:  10 B5  returns 0x00 (0003ms, 0726ms total)
T2970 003:380 JLINK_ReadMem (0x0800058C, 0x003C Bytes, ...) -- CPU_ReadMem(64 bytes @ 0x080005C0) -- Updating C cache (64 bytes @ 0x080005C0) -- Read from C cache (60 bytes @ 0x0800058C) -- Data:  00 24 01 F0 73 FE 01 F0 DB FE 4F F4 16 50 01 F0 ...  returns 0x00 (0002ms, 0728ms total)
T2970 003:382 JLINK_Step() -- Read from C cache (2 bytes @ 0x0800058A) -- CPU_WriteMem(8 bytes @ 0x200007A8) -- Simulated  returns 0x00 (0002ms, 0730ms total)
T2970 003:384 JLINK_ReadReg(R15 (PC))  returns 0x0800058C (0000ms, 0730ms total)
T2970 003:384 JLINK_ReadReg(XPSR)  returns 0x61000000 (0000ms, 0730ms total)
T2970 003:384 JLINK_ReadReg(R0)  returns 0x200001B0 (0000ms, 0730ms total)
T2970 003:384 JLINK_ReadReg(R1)  returns 0x200003B0 (0000ms, 0730ms total)
T2970 003:384 JLINK_ReadReg(R2)  returns 0x200003B0 (0001ms, 0731ms total)
T2970 003:385 JLINK_ReadReg(R3)  returns 0x200003B0 (0000ms, 0731ms total)
T2970 003:385 JLINK_ReadReg(R4)  returns 0x00000000 (0000ms, 0731ms total)
T2970 003:385 JLINK_ReadReg(R5)  returns 0x20000150 (0000ms, 0731ms total)
T2970 003:385 JLINK_ReadReg(R6)  returns 0x00000000 (0000ms, 0731ms total)
T2970 003:385 JLINK_ReadReg(R7)  returns 0x00000000 (0000ms, 0731ms total)
T2970 003:385 JLINK_ReadReg(R8)  returns 0x00000000 (0000ms, 0731ms total)
T2970 003:385 JLINK_ReadReg(R9)  returns 0x20000160 (0000ms, 0731ms total)
T2970 003:385 JLINK_ReadReg(R10)  returns 0x0800B88C (0000ms, 0731ms total)
T2970 003:385 JLINK_ReadReg(R11)  returns 0x00000000 (0000ms, 0731ms total)
T2970 003:385 JLINK_ReadReg(R12)  returns 0x20000190 (0001ms, 0732ms total)
T2970 003:386 JLINK_ReadReg(R13 (SP))  returns 0x200007A8 (0000ms, 0732ms total)
T2970 003:386 JLINK_ReadReg(R14)  returns 0x080001DB (0000ms, 0732ms total)
T2970 003:386 JLINK_ReadReg(R15 (PC))  returns 0x0800058C (0000ms, 0732ms total)
T2970 003:386 JLINK_ReadReg(XPSR)  returns 0x61000000 (0000ms, 0732ms total)
T2970 003:386 JLINK_ReadReg(MSP)  returns 0x200007A8 (0000ms, 0732ms total)
T2970 003:386 JLINK_ReadReg(PSP)  returns 0x20000800 (0000ms, 0732ms total)
T2970 003:386 JLINK_ReadReg(CFBP)  returns 0x00000000 (0000ms, 0732ms total)
T1270 003:387 JLINK_ReadMem (0x200007AC, 0x0004 Bytes, ...) -- CPU_ReadMem(64 bytes @ 0x20000780) -- Updating C cache (64 bytes @ 0x20000780) -- Read from C cache (4 bytes @ 0x200007AC) -- Data:  DB 01 00 08  returns 0x00 (0002ms, 0734ms total)
T1270 003:389 JLINK_ReadMem (0x00000000, 0x0001 Bytes, ...) -- Read from C cache (1 bytes @ 0x08000000) -- Data:  B0  returns 0x00 (0000ms, 0734ms total)
T1270 003:389 JLINK_ReadMemU32(0xE0001004, 0x0001 Items, ...) -- Data:  54 17 00 00  returns 0x01 (0000ms, 0734ms total)
T1270 003:389 JLINK_ReadMem (0x2000012C, 0x0001 Bytes, ...) -- Read from C cache (1 bytes @ 0x2000012C) -- Data:  00  returns 0x00 (0000ms, 0734ms total)
T2970 005:161 JLINK_ReadMem (0x0800058C, 0x003C Bytes, ...) -- Read from C cache (60 bytes @ 0x0800058C) -- Data:  00 24 01 F0 73 FE 01 F0 DB FE 4F F4 16 50 01 F0 ...  returns 0x00 (0002ms, 0737ms total)
T2970 005:163 JLINK_Step() -- Read from C cache (2 bytes @ 0x0800058C) -- Simulated  returns 0x00 (0001ms, 0738ms total)
T2970 005:164 JLINK_ReadReg(R15 (PC))  returns 0x0800058E (0000ms, 0738ms total)
T2970 005:164 JLINK_ReadReg(XPSR)  returns 0x61000000 (0000ms, 0738ms total)
T2970 005:164 JLINK_ReadReg(R0)  returns 0x200001B0 (0000ms, 0738ms total)
T2970 005:164 JLINK_ReadReg(R1)  returns 0x200003B0 (0000ms, 0738ms total)
T2970 005:164 JLINK_ReadReg(R2)  returns 0x200003B0 (0001ms, 0739ms total)
T2970 005:165 JLINK_ReadReg(R3)  returns 0x200003B0 (0000ms, 0739ms total)
T2970 005:165 JLINK_ReadReg(R4)  returns 0x00000000 (0000ms, 0739ms total)
T2970 005:165 JLINK_ReadReg(R5)  returns 0x20000150 (0000ms, 0739ms total)
T2970 005:165 JLINK_ReadReg(R6)  returns 0x00000000 (0000ms, 0739ms total)
T2970 005:165 JLINK_ReadReg(R7)  returns 0x00000000 (0000ms, 0739ms total)
T2970 005:165 JLINK_ReadReg(R8)  returns 0x00000000 (0000ms, 0739ms total)
T2970 005:165 JLINK_ReadReg(R9)  returns 0x20000160 (0000ms, 0739ms total)
T2970 005:165 JLINK_ReadReg(R10)  returns 0x0800B88C (0000ms, 0739ms total)
T2970 005:165 JLINK_ReadReg(R11)  returns 0x00000000 (0000ms, 0739ms total)
T2970 005:165 JLINK_ReadReg(R12)  returns 0x20000190 (0001ms, 0740ms total)
T2970 005:166 JLINK_ReadReg(R13 (SP))  returns 0x200007A8 (0000ms, 0740ms total)
T2970 005:166 JLINK_ReadReg(R14)  returns 0x080001DB (0000ms, 0740ms total)
T2970 005:166 JLINK_ReadReg(R15 (PC))  returns 0x0800058E (0000ms, 0740ms total)
T2970 005:166 JLINK_ReadReg(XPSR)  returns 0x61000000 (0000ms, 0740ms total)
T2970 005:166 JLINK_ReadReg(MSP)  returns 0x200007A8 (0000ms, 0740ms total)
T2970 005:166 JLINK_ReadReg(PSP)  returns 0x20000800 (0000ms, 0740ms total)
T2970 005:166 JLINK_ReadReg(CFBP)  returns 0x00000000 (0000ms, 0740ms total)
T1270 005:169 JLINK_ReadMem (0x200007AC, 0x0004 Bytes, ...) -- Read from C cache (4 bytes @ 0x200007AC) -- Data:  DB 01 00 08  returns 0x00 (0000ms, 0740ms total)
T1270 005:169 JLINK_ReadMemU32(0xE0001004, 0x0001 Items, ...) -- Data:  54 17 00 00  returns 0x01 (0000ms, 0740ms total)
T1270 005:169 JLINK_ReadMem (0x2000012C, 0x0001 Bytes, ...) -- Read from C cache (1 bytes @ 0x2000012C) -- Data:  00  returns 0x00 (0000ms, 0740ms total)
T1270 005:169 JLINK_ReadMem (0x0800058E, 0x0002 Bytes, ...) -- Read from C cache (2 bytes @ 0x0800058E) -- Data:  01 F0  returns 0x00 (0000ms, 0740ms total)
T1270 005:170 JLINK_ReadMem (0x08000590, 0x003C Bytes, ...) -- Read from C cache (60 bytes @ 0x08000590) -- Data:  73 FE 01 F0 DB FE 4F F4 16 50 01 F0 EC FE 4F F4 ...  returns 0x00 (0000ms, 0741ms total)
T2970 005:649 JLINK_SetBPEx(Addr = 0x08000592, Type = 0xFFFFFFF2)  returns 0x00000002 (0001ms, 0742ms total)
T2970 005:650 JLINK_Go() -- CPU_WriteMem(4 bytes @ 0xE0002000) -- CPU_WriteMem(4 bytes @ 0xE0002008) -- CPU_WriteMem(4 bytes @ 0xE0001004) (0005ms, 0747ms total)
T2970 005:756 JLINK_IsHalted()  returns TRUE (0003ms, 0750ms total)
T2970 005:759 JLINK_Halt()  returns 0x00 (0000ms, 0747ms total)
T2970 005:759 JLINK_IsHalted()  returns TRUE (0000ms, 0747ms total)
T2970 005:759 JLINK_IsHalted()  returns TRUE (0000ms, 0747ms total)
T2970 005:759 JLINK_IsHalted()  returns TRUE (0001ms, 0748ms total)
T2970 005:760 JLINK_ReadReg(R15 (PC))  returns 0x08000592 (0000ms, 0747ms total)
T2970 005:760 JLINK_ReadReg(XPSR)  returns 0xA1000000 (0000ms, 0747ms total)
T2970 005:760 JLINK_ClrBPEx(BPHandle = 0x00000002)  returns 0x00 (0000ms, 0747ms total)
T2970 005:760 JLINK_ReadMemU32(0xE000ED30, 0x0001 Items, ...) -- CPU_ReadMem(4 bytes @ 0xE000ED30) -- Data:  03 00 00 00  returns 0x01 (0001ms, 0748ms total)
T2970 005:761 JLINK_ReadMemU32(0xE0001028, 0x0001 Items, ...) -- CPU_ReadMem(4 bytes @ 0xE0001028) -- Data:  00 00 00 00  returns 0x01 (0001ms, 0749ms total)
T2970 005:762 JLINK_ReadMemU32(0xE0001038, 0x0001 Items, ...) -- CPU_ReadMem(4 bytes @ 0xE0001038) -- Data:  00 02 00 00  returns 0x01 (0001ms, 0750ms total)
T2970 005:763 JLINK_ReadMemU32(0xE0001048, 0x0001 Items, ...) -- CPU_ReadMem(4 bytes @ 0xE0001048) -- Data:  00 00 00 00  returns 0x01 (0001ms, 0751ms total)
T2970 005:764 JLINK_ReadMemU32(0xE0001058, 0x0001 Items, ...) -- CPU_ReadMem(4 bytes @ 0xE0001058) -- Data:  00 00 00 00  returns 0x01 (0001ms, 0752ms total)
T2970 005:765 JLINK_ReadReg(R0)  returns 0x00002328 (0000ms, 0752ms total)
T2970 005:765 JLINK_ReadReg(R1)  returns 0x2000002E (0001ms, 0753ms total)
T2970 005:766 JLINK_ReadReg(R2)  returns 0xE000E000 (0000ms, 0753ms total)
T2970 005:766 JLINK_ReadReg(R3)  returns 0x200003B0 (0000ms, 0753ms total)
T2970 005:766 JLINK_ReadReg(R4)  returns 0x00000000 (0000ms, 0753ms total)
T2970 005:766 JLINK_ReadReg(R5)  returns 0x20000150 (0000ms, 0753ms total)
T2970 005:766 JLINK_ReadReg(R6)  returns 0x00000000 (0000ms, 0753ms total)
T2970 005:766 JLINK_ReadReg(R7)  returns 0x00000000 (0000ms, 0753ms total)
T2970 005:766 JLINK_ReadReg(R8)  returns 0x00000000 (0000ms, 0753ms total)
T2970 005:766 JLINK_ReadReg(R9)  returns 0x20000160 (0000ms, 0753ms total)
T2970 005:766 JLINK_ReadReg(R10)  returns 0x0800B88C (0000ms, 0753ms total)
T2970 005:766 JLINK_ReadReg(R11)  returns 0x00000000 (0000ms, 0753ms total)
T2970 005:767 JLINK_ReadReg(R12)  returns 0x20000190 (0000ms, 0754ms total)
T2970 005:767 JLINK_ReadReg(R13 (SP))  returns 0x200007A8 (0000ms, 0754ms total)
T2970 005:767 JLINK_ReadReg(R14)  returns 0x08002283 (0000ms, 0754ms total)
T2970 005:767 JLINK_ReadReg(R15 (PC))  returns 0x08000592 (0000ms, 0754ms total)
T2970 005:767 JLINK_ReadReg(XPSR)  returns 0xA1000000 (0000ms, 0754ms total)
T2970 005:767 JLINK_ReadReg(MSP)  returns 0x200007A8 (0000ms, 0754ms total)
T2970 005:767 JLINK_ReadReg(PSP)  returns 0x20000800 (0000ms, 0754ms total)
T2970 005:767 JLINK_ReadReg(CFBP)  returns 0x00000000 (0000ms, 0754ms total)
T1270 005:768 JLINK_ReadMem (0x200007AC, 0x0004 Bytes, ...) -- CPU_ReadMem(64 bytes @ 0x20000780) -- Updating C cache (64 bytes @ 0x20000780) -- Read from C cache (4 bytes @ 0x200007AC) -- Data:  DB 01 00 08  returns 0x00 (0001ms, 0755ms total)
T1270 005:770 JLINK_ReadMemU32(0xE0001004, 0x0001 Items, ...) -- CPU_ReadMem(4 bytes @ 0xE0001004) -- Data:  AB 17 00 00  returns 0x01 (0001ms, 0756ms total)
T1270 005:771 JLINK_ReadMem (0x2000012C, 0x0001 Bytes, ...) -- CPU_ReadMem(64 bytes @ 0x20000100) -- Updating C cache (64 bytes @ 0x20000100) -- Read from C cache (1 bytes @ 0x2000012C) -- Data:  00  returns 0x00 (0002ms, 0758ms total)
T1270 005:773 JLINK_ReadMem (0x08000592, 0x0002 Bytes, ...) -- CPU_ReadMem(64 bytes @ 0x08000580) -- Updating C cache (64 bytes @ 0x08000580) -- Read from C cache (2 bytes @ 0x08000592) -- Data:  01 F0  returns 0x00 (0002ms, 0760ms total)
T1270 005:775 JLINK_ReadMem (0x08000594, 0x003C Bytes, ...) -- CPU_ReadMem(64 bytes @ 0x080005C0) -- Updating C cache (64 bytes @ 0x080005C0) -- Read from C cache (60 bytes @ 0x08000594) -- Data:  DB FE 4F F4 16 50 01 F0 EC FE 4F F4 E1 30 01 F0 ...  returns 0x00 (0002ms, 0762ms total)
T2970 006:050 JLINK_SetBPEx(Addr = 0x08000596, Type = 0xFFFFFFF2)  returns 0x00000003 (0000ms, 0762ms total)
T2970 006:050 JLINK_Go() -- CPU_WriteMem(4 bytes @ 0xE0002000) -- CPU_WriteMem(4 bytes @ 0xE0002008) (0003ms, 0765ms total)
T2970 006:154 JLINK_IsHalted()  returns TRUE (0003ms, 0769ms total)
T2970 006:157 JLINK_Halt()  returns 0x00 (0000ms, 0766ms total)
T2970 006:157 JLINK_IsHalted()  returns TRUE (0000ms, 0766ms total)
T2970 006:157 JLINK_IsHalted()  returns TRUE (0000ms, 0766ms total)
T2970 006:157 JLINK_IsHalted()  returns TRUE (0000ms, 0766ms total)
T2970 006:157 JLINK_ReadReg(R15 (PC))  returns 0x08000596 (0001ms, 0767ms total)
T2970 006:158 JLINK_ReadReg(XPSR)  returns 0x21000000 (0000ms, 0767ms total)
T2970 006:158 JLINK_ClrBPEx(BPHandle = 0x00000003)  returns 0x00 (0000ms, 0767ms total)
T2970 006:158 JLINK_ReadMemU32(0xE000ED30, 0x0001 Items, ...) -- CPU_ReadMem(4 bytes @ 0xE000ED30) -- Data:  03 00 00 00  returns 0x01 (0001ms, 0768ms total)
T2970 006:159 JLINK_ReadMemU32(0xE0001028, 0x0001 Items, ...) -- CPU_ReadMem(4 bytes @ 0xE0001028) -- Data:  00 00 00 00  returns 0x01 (0001ms, 0769ms total)
T2970 006:160 JLINK_ReadMemU32(0xE0001038, 0x0001 Items, ...) -- CPU_ReadMem(4 bytes @ 0xE0001038) -- Data:  00 02 00 00  returns 0x01 (0001ms, 0770ms total)
T2970 006:161 JLINK_ReadMemU32(0xE0001048, 0x0001 Items, ...) -- CPU_ReadMem(4 bytes @ 0xE0001048) -- Data:  00 00 00 00  returns 0x01 (0001ms, 0771ms total)
T2970 006:162 JLINK_ReadMemU32(0xE0001058, 0x0001 Items, ...) -- CPU_ReadMem(4 bytes @ 0xE0001058) -- Data:  00 00 00 00  returns 0x01 (0002ms, 0773ms total)
T2970 006:164 JLINK_ReadReg(R0)  returns 0x00000500 (0001ms, 0774ms total)
T2970 006:165 JLINK_ReadReg(R1)  returns 0x05FA0500 (0000ms, 0774ms total)
T2970 006:165 JLINK_ReadReg(R2)  returns 0xE000ED0C (0000ms, 0774ms total)
T2970 006:165 JLINK_ReadReg(R3)  returns 0x200003B0 (0000ms, 0774ms total)
T2970 006:165 JLINK_ReadReg(R4)  returns 0x00000000 (0000ms, 0774ms total)
T2970 006:165 JLINK_ReadReg(R5)  returns 0x20000150 (0000ms, 0774ms total)
T2970 006:165 JLINK_ReadReg(R6)  returns 0x00000000 (0000ms, 0774ms total)
T2970 006:165 JLINK_ReadReg(R7)  returns 0x00000000 (0000ms, 0774ms total)
T2970 006:165 JLINK_ReadReg(R8)  returns 0x00000000 (0000ms, 0774ms total)
T2970 006:165 JLINK_ReadReg(R9)  returns 0x20000160 (0000ms, 0774ms total)
T2970 006:165 JLINK_ReadReg(R10)  returns 0x0800B88C (0001ms, 0775ms total)
T2970 006:166 JLINK_ReadReg(R11)  returns 0x00000000 (0000ms, 0775ms total)
T2970 006:166 JLINK_ReadReg(R12)  returns 0x20000190 (0000ms, 0775ms total)
T2970 006:166 JLINK_ReadReg(R13 (SP))  returns 0x200007A8 (0000ms, 0775ms total)
T2970 006:166 JLINK_ReadReg(R14)  returns 0x08002357 (0000ms, 0775ms total)
T2970 006:166 JLINK_ReadReg(R15 (PC))  returns 0x08000596 (0000ms, 0775ms total)
T2970 006:166 JLINK_ReadReg(XPSR)  returns 0x21000000 (0000ms, 0775ms total)
T2970 006:166 JLINK_ReadReg(MSP)  returns 0x200007A8 (0000ms, 0775ms total)
T2970 006:166 JLINK_ReadReg(PSP)  returns 0x20000800 (0000ms, 0775ms total)
T2970 006:166 JLINK_ReadReg(CFBP)  returns 0x00000000 (0000ms, 0775ms total)
T1270 006:167 JLINK_ReadMem (0x200007AC, 0x0004 Bytes, ...) -- CPU_ReadMem(64 bytes @ 0x20000780) -- Updating C cache (64 bytes @ 0x20000780) -- Read from C cache (4 bytes @ 0x200007AC) -- Data:  DB 01 00 08  returns 0x00 (0001ms, 0776ms total)
T1270 006:169 JLINK_ReadMemU32(0xE0001004, 0x0001 Items, ...) -- CPU_ReadMem(4 bytes @ 0xE0001004) -- Data:  D4 17 00 00  returns 0x01 (0000ms, 0776ms total)
T1270 006:170 JLINK_ReadMem (0x2000012C, 0x0001 Bytes, ...) -- CPU_ReadMem(64 bytes @ 0x20000100) -- Updating C cache (64 bytes @ 0x20000100) -- Read from C cache (1 bytes @ 0x2000012C) -- Data:  00  returns 0x00 (0001ms, 0777ms total)
T1270 006:172 JLINK_ReadMem (0x08000596, 0x0002 Bytes, ...) -- CPU_ReadMem(64 bytes @ 0x08000580) -- Updating C cache (64 bytes @ 0x08000580) -- Read from C cache (2 bytes @ 0x08000596) -- Data:  4F F4  returns 0x00 (0001ms, 0778ms total)
T1270 006:173 JLINK_ReadMem (0x08000598, 0x003C Bytes, ...) -- CPU_ReadMem(64 bytes @ 0x080005C0) -- Updating C cache (64 bytes @ 0x080005C0) -- Read from C cache (60 bytes @ 0x08000598) -- Data:  16 50 01 F0 EC FE 4F F4 E1 30 01 F0 37 FF 02 F0 ...  returns 0x00 (0002ms, 0780ms total)
T2970 006:403 JLINK_Step() -- Read from C cache (2 bytes @ 0x08000596) -- Read from C cache (2 bytes @ 0x08000598) -- Simulated  returns 0x00 (0001ms, 0781ms total)
T2970 006:404 JLINK_ReadReg(R15 (PC))  returns 0x0800059A (0000ms, 0781ms total)
T2970 006:404 JLINK_ReadReg(XPSR)  returns 0x21000000 (0000ms, 0781ms total)
T2970 006:404 JLINK_ReadReg(R0)  returns 0x00002580 (0000ms, 0781ms total)
T2970 006:404 JLINK_ReadReg(R1)  returns 0x05FA0500 (0000ms, 0781ms total)
T2970 006:404 JLINK_ReadReg(R2)  returns 0xE000ED0C (0000ms, 0781ms total)
T2970 006:404 JLINK_ReadReg(R3)  returns 0x200003B0 (0000ms, 0781ms total)
T2970 006:404 JLINK_ReadReg(R4)  returns 0x00000000 (0000ms, 0781ms total)
T2970 006:405 JLINK_ReadReg(R5)  returns 0x20000150 (0000ms, 0782ms total)
T2970 006:405 JLINK_ReadReg(R6)  returns 0x00000000 (0000ms, 0782ms total)
T2970 006:405 JLINK_ReadReg(R7)  returns 0x00000000 (0000ms, 0782ms total)
T2970 006:405 JLINK_ReadReg(R8)  returns 0x00000000 (0000ms, 0782ms total)
T2970 006:405 JLINK_ReadReg(R9)  returns 0x20000160 (0000ms, 0782ms total)
T2970 006:405 JLINK_ReadReg(R10)  returns 0x0800B88C (0000ms, 0782ms total)
T2970 006:405 JLINK_ReadReg(R11)  returns 0x00000000 (0000ms, 0782ms total)
T2970 006:405 JLINK_ReadReg(R12)  returns 0x20000190 (0000ms, 0782ms total)
T2970 006:405 JLINK_ReadReg(R13 (SP))  returns 0x200007A8 (0000ms, 0782ms total)
T2970 006:405 JLINK_ReadReg(R14)  returns 0x08002357 (0000ms, 0782ms total)
T2970 006:406 JLINK_ReadReg(R15 (PC))  returns 0x0800059A (0000ms, 0783ms total)
T2970 006:406 JLINK_ReadReg(XPSR)  returns 0x21000000 (0000ms, 0783ms total)
T2970 006:406 JLINK_ReadReg(MSP)  returns 0x200007A8 (0000ms, 0783ms total)
T2970 006:406 JLINK_ReadReg(PSP)  returns 0x20000800 (0000ms, 0783ms total)
T2970 006:406 JLINK_ReadReg(CFBP)  returns 0x00000000 (0000ms, 0783ms total)
T1270 006:408 JLINK_ReadMem (0x200007AC, 0x0004 Bytes, ...) -- Read from C cache (4 bytes @ 0x200007AC) -- Data:  DB 01 00 08  returns 0x00 (0000ms, 0783ms total)
T1270 006:409 JLINK_ReadMemU32(0xE0001004, 0x0001 Items, ...) -- Data:  D4 17 00 00  returns 0x01 (0000ms, 0783ms total)
T1270 006:409 JLINK_ReadMem (0x2000012C, 0x0001 Bytes, ...) -- Read from C cache (1 bytes @ 0x2000012C) -- Data:  00  returns 0x00 (0000ms, 0783ms total)
T1270 006:409 JLINK_ReadMem (0x0800059A, 0x0002 Bytes, ...) -- Read from C cache (2 bytes @ 0x0800059A) -- Data:  01 F0  returns 0x00 (0000ms, 0783ms total)
T1270 006:409 JLINK_ReadMem (0x0800059C, 0x003C Bytes, ...) -- Read from C cache (60 bytes @ 0x0800059C) -- Data:  EC FE 4F F4 E1 30 01 F0 37 FF 02 F0 0B F8 41 F6 ...  returns 0x00 (0000ms, 0783ms total)
T2970 006:603 JLINK_SetBPEx(Addr = 0x0800059E, Type = 0xFFFFFFF2)  returns 0x00000004 (0000ms, 0783ms total)
T2970 006:603 JLINK_Go() -- CPU_WriteMem(4 bytes @ 0xE0002000) -- CPU_WriteMem(4 bytes @ 0xE0002008) -- CPU_WriteMem(4 bytes @ 0xE0001004) (0006ms, 0789ms total)
T2970 006:709 JLINK_IsHalted()  returns TRUE (0003ms, 0792ms total)
T2970 006:712 JLINK_Halt()  returns 0x00 (0000ms, 0789ms total)
T2970 006:712 JLINK_IsHalted()  returns TRUE (0000ms, 0789ms total)
T2970 006:712 JLINK_IsHalted()  returns TRUE (0000ms, 0789ms total)
T2970 006:712 JLINK_IsHalted()  returns TRUE (0001ms, 0790ms total)
T2970 006:713 JLINK_ReadReg(R15 (PC))  returns 0x0800059E (0000ms, 0789ms total)
T2970 006:713 JLINK_ReadReg(XPSR)  returns 0x01000000 (0000ms, 0789ms total)
T2970 006:713 JLINK_ClrBPEx(BPHandle = 0x00000004)  returns 0x00 (0000ms, 0789ms total)
T2970 006:713 JLINK_ReadMemU32(0xE000ED30, 0x0001 Items, ...) -- CPU_ReadMem(4 bytes @ 0xE000ED30) -- Data:  03 00 00 00  returns 0x01 (0001ms, 0790ms total)
T2970 006:714 JLINK_ReadMemU32(0xE0001028, 0x0001 Items, ...) -- CPU_ReadMem(4 bytes @ 0xE0001028) -- Data:  00 00 00 00  returns 0x01 (0001ms, 0791ms total)
T2970 006:715 JLINK_ReadMemU32(0xE0001038, 0x0001 Items, ...) -- CPU_ReadMem(4 bytes @ 0xE0001038) -- Data:  00 02 00 00  returns 0x01 (0001ms, 0792ms total)
T2970 006:716 JLINK_ReadMemU32(0xE0001048, 0x0001 Items, ...) -- CPU_ReadMem(4 bytes @ 0xE0001048) -- Data:  00 00 00 00  returns 0x01 (0001ms, 0793ms total)
T2970 006:717 JLINK_ReadMemU32(0xE0001058, 0x0001 Items, ...) -- CPU_ReadMem(4 bytes @ 0xE0001058) -- Data:  00 00 00 00  returns 0x01 (0001ms, 0794ms total)
T2970 006:718 JLINK_ReadReg(R0)  returns 0x40013800 (0001ms, 0795ms total)
T2970 006:719 JLINK_ReadReg(R1)  returns 0x00000001 (0000ms, 0795ms total)
T2970 006:719 JLINK_ReadReg(R2)  returns 0x0000202C (0000ms, 0795ms total)
T2970 006:719 JLINK_ReadReg(R3)  returns 0x40013800 (0000ms, 0795ms total)
T2970 006:719 JLINK_ReadReg(R4)  returns 0x00000000 (0000ms, 0795ms total)
T2970 006:719 JLINK_ReadReg(R5)  returns 0x20000150 (0000ms, 0795ms total)
T2970 006:719 JLINK_ReadReg(R6)  returns 0x00000000 (0000ms, 0795ms total)
T2970 006:719 JLINK_ReadReg(R7)  returns 0x00000000 (0000ms, 0795ms total)
T2970 006:719 JLINK_ReadReg(R8)  returns 0x00000000 (0000ms, 0795ms total)
T2970 006:719 JLINK_ReadReg(R9)  returns 0x20000160 (0000ms, 0795ms total)
T2970 006:719 JLINK_ReadReg(R10)  returns 0x0800B88C (0000ms, 0795ms total)
T2970 006:720 JLINK_ReadReg(R11)  returns 0x00000000 (0000ms, 0795ms total)
T2970 006:720 JLINK_ReadReg(R12)  returns 0x00000400 (0000ms, 0795ms total)
T2970 006:720 JLINK_ReadReg(R13 (SP))  returns 0x200007A8 (0000ms, 0795ms total)
T2970 006:720 JLINK_ReadReg(R14)  returns 0x08002411 (0000ms, 0795ms total)
T2970 006:720 JLINK_ReadReg(R15 (PC))  returns 0x0800059E (0000ms, 0795ms total)
T2970 006:720 JLINK_ReadReg(XPSR)  returns 0x01000000 (0000ms, 0795ms total)
T2970 006:720 JLINK_ReadReg(MSP)  returns 0x200007A8 (0000ms, 0795ms total)
T2970 006:720 JLINK_ReadReg(PSP)  returns 0x20000800 (0000ms, 0795ms total)
T2970 006:720 JLINK_ReadReg(CFBP)  returns 0x00000000 (0000ms, 0795ms total)
T1270 006:721 JLINK_ReadMem (0x200007AC, 0x0004 Bytes, ...) -- CPU_ReadMem(64 bytes @ 0x20000780) -- Updating C cache (64 bytes @ 0x20000780) -- Read from C cache (4 bytes @ 0x200007AC) -- Data:  DB 01 00 08  returns 0x00 (0001ms, 0796ms total)
T1270 006:722 JLINK_ReadMemU32(0xE0001004, 0x0001 Items, ...) -- CPU_ReadMem(4 bytes @ 0xE0001004) -- Data:  E7 1C 00 00  returns 0x01 (0001ms, 0797ms total)
T1270 006:724 JLINK_ReadMem (0x2000012C, 0x0001 Bytes, ...) -- CPU_ReadMem(64 bytes @ 0x20000100) -- Updating C cache (64 bytes @ 0x20000100) -- Read from C cache (1 bytes @ 0x2000012C) -- Data:  00  returns 0x00 (0001ms, 0798ms total)
T1270 006:726 JLINK_ReadMem (0x0800059E, 0x0002 Bytes, ...) -- CPU_ReadMem(64 bytes @ 0x08000580) -- Updating C cache (64 bytes @ 0x08000580) -- Read from C cache (2 bytes @ 0x0800059E) -- Data:  4F F4  returns 0x00 (0001ms, 0799ms total)
T1270 006:727 JLINK_ReadMem (0x080005A0, 0x003C Bytes, ...) -- CPU_ReadMem(64 bytes @ 0x080005C0) -- Updating C cache (64 bytes @ 0x080005C0) -- Read from C cache (60 bytes @ 0x080005A0) -- Data:  E1 30 01 F0 37 FF 02 F0 0B F8 41 F6 1F 41 42 F2 ...  returns 0x00 (0002ms, 0801ms total)
T2970 006:970 JLINK_Step() -- Read from C cache (2 bytes @ 0x0800059E) -- Read from C cache (2 bytes @ 0x080005A0) -- Simulated  returns 0x00 (0000ms, 0801ms total)
T2970 006:970 JLINK_ReadReg(R15 (PC))  returns 0x080005A2 (0000ms, 0801ms total)
T2970 006:970 JLINK_ReadReg(XPSR)  returns 0x01000000 (0000ms, 0801ms total)
T2970 006:970 JLINK_ReadReg(R0)  returns 0x0001C200 (0001ms, 0802ms total)
T2970 006:971 JLINK_ReadReg(R1)  returns 0x00000001 (0000ms, 0802ms total)
T2970 006:971 JLINK_ReadReg(R2)  returns 0x0000202C (0000ms, 0802ms total)
T2970 006:971 JLINK_ReadReg(R3)  returns 0x40013800 (0000ms, 0802ms total)
T2970 006:971 JLINK_ReadReg(R4)  returns 0x00000000 (0000ms, 0802ms total)
T2970 006:971 JLINK_ReadReg(R5)  returns 0x20000150 (0000ms, 0802ms total)
T2970 006:971 JLINK_ReadReg(R6)  returns 0x00000000 (0000ms, 0802ms total)
T2970 006:971 JLINK_ReadReg(R7)  returns 0x00000000 (0000ms, 0802ms total)
T2970 006:971 JLINK_ReadReg(R8)  returns 0x00000000 (0000ms, 0802ms total)
T2970 006:971 JLINK_ReadReg(R9)  returns 0x20000160 (0000ms, 0802ms total)
T2970 006:971 JLINK_ReadReg(R10)  returns 0x0800B88C (0000ms, 0802ms total)
T2970 006:972 JLINK_ReadReg(R11)  returns 0x00000000 (0000ms, 0803ms total)
T2970 006:972 JLINK_ReadReg(R12)  returns 0x00000400 (0000ms, 0803ms total)
T2970 006:972 JLINK_ReadReg(R13 (SP))  returns 0x200007A8 (0000ms, 0803ms total)
T2970 006:972 JLINK_ReadReg(R14)  returns 0x08002411 (0000ms, 0803ms total)
T2970 006:972 JLINK_ReadReg(R15 (PC))  returns 0x080005A2 (0000ms, 0803ms total)
T2970 006:972 JLINK_ReadReg(XPSR)  returns 0x01000000 (0000ms, 0803ms total)
T2970 006:972 JLINK_ReadReg(MSP)  returns 0x200007A8 (0000ms, 0803ms total)
T2970 006:972 JLINK_ReadReg(PSP)  returns 0x20000800 (0000ms, 0803ms total)
T2970 006:972 JLINK_ReadReg(CFBP)  returns 0x00000000 (0001ms, 0804ms total)
T1270 006:975 JLINK_ReadMem (0x200007AC, 0x0004 Bytes, ...) -- Read from C cache (4 bytes @ 0x200007AC) -- Data:  DB 01 00 08  returns 0x00 (0000ms, 0804ms total)
T1270 006:975 JLINK_ReadMemU32(0xE0001004, 0x0001 Items, ...) -- Data:  E7 1C 00 00  returns 0x01 (0000ms, 0804ms total)
T1270 006:975 JLINK_ReadMem (0x2000012C, 0x0001 Bytes, ...) -- Read from C cache (1 bytes @ 0x2000012C) -- Data:  00  returns 0x00 (0001ms, 0805ms total)
T1270 006:976 JLINK_ReadMem (0x080005A2, 0x0002 Bytes, ...) -- Read from C cache (2 bytes @ 0x080005A2) -- Data:  01 F0  returns 0x00 (0000ms, 0805ms total)
T1270 006:976 JLINK_ReadMem (0x080005A4, 0x003C Bytes, ...) -- Read from C cache (60 bytes @ 0x080005A4) -- Data:  37 FF 02 F0 0B F8 41 F6 1F 41 42 F2 0F 70 02 F0 ...  returns 0x00 (0000ms, 0805ms total)
T2970 007:346 JLINK_SetBPEx(Addr = 0x080005A6, Type = 0xFFFFFFF2)  returns 0x00000005 (0001ms, 0806ms total)
T2970 007:347 JLINK_Go() -- CPU_WriteMem(4 bytes @ 0xE0002000) -- CPU_WriteMem(4 bytes @ 0xE0002008) -- CPU_WriteMem(4 bytes @ 0xE0001004) (0006ms, 0812ms total)
T2970 007:453 JLINK_IsHalted()  returns TRUE (0003ms, 0815ms total)
T2970 007:456 JLINK_Halt()  returns 0x00 (0000ms, 0812ms total)
T2970 007:456 JLINK_IsHalted()  returns TRUE (0001ms, 0813ms total)
T2970 007:457 JLINK_IsHalted()  returns TRUE (0000ms, 0812ms total)
T2970 007:457 JLINK_IsHalted()  returns TRUE (0000ms, 0812ms total)
T2970 007:457 JLINK_ReadReg(R15 (PC))  returns 0x080005A6 (0000ms, 0812ms total)
T2970 007:457 JLINK_ReadReg(XPSR)  returns 0x81000000 (0000ms, 0812ms total)
T2970 007:457 JLINK_ClrBPEx(BPHandle = 0x00000005)  returns 0x00 (0000ms, 0812ms total)
T2970 007:457 JLINK_ReadMemU32(0xE000ED30, 0x0001 Items, ...) -- CPU_ReadMem(4 bytes @ 0xE000ED30) -- Data:  03 00 00 00  returns 0x01 (0002ms, 0814ms total)
T2970 007:459 JLINK_ReadMemU32(0xE0001028, 0x0001 Items, ...) -- CPU_ReadMem(4 bytes @ 0xE0001028) -- Data:  00 00 00 00  returns 0x01 (0001ms, 0815ms total)
T2970 007:460 JLINK_ReadMemU32(0xE0001038, 0x0001 Items, ...) -- CPU_ReadMem(4 bytes @ 0xE0001038) -- Data:  00 02 00 00  returns 0x01 (0001ms, 0816ms total)
T2970 007:461 JLINK_ReadMemU32(0xE0001048, 0x0001 Items, ...) -- CPU_ReadMem(4 bytes @ 0xE0001048) -- Data:  00 00 00 00  returns 0x01 (0001ms, 0817ms total)
T2970 007:462 JLINK_ReadMemU32(0xE0001058, 0x0001 Items, ...) -- CPU_ReadMem(4 bytes @ 0xE0001058) -- Data:  00 00 00 00  returns 0x01 (0001ms, 0818ms total)
T2970 007:463 JLINK_ReadReg(R0)  returns 0x40004400 (0000ms, 0818ms total)
T2970 007:463 JLINK_ReadReg(R1)  returns 0x00000040 (0000ms, 0818ms total)
T2970 007:463 JLINK_ReadReg(R2)  returns 0xFFFFFFBF (0000ms, 0818ms total)
T2970 007:463 JLINK_ReadReg(R3)  returns 0x40004400 (0000ms, 0818ms total)
T2970 007:463 JLINK_ReadReg(R4)  returns 0x00000000 (0000ms, 0818ms total)
T2970 007:463 JLINK_ReadReg(R5)  returns 0x20000150 (0000ms, 0818ms total)
T2970 007:463 JLINK_ReadReg(R6)  returns 0x00000000 (0000ms, 0818ms total)
T2970 007:463 JLINK_ReadReg(R7)  returns 0x00000000 (0000ms, 0818ms total)
T2970 007:463 JLINK_ReadReg(R8)  returns 0x00000000 (0001ms, 0819ms total)
T2970 007:464 JLINK_ReadReg(R9)  returns 0x20000160 (0000ms, 0819ms total)
T2970 007:464 JLINK_ReadReg(R10)  returns 0x0800B88C (0000ms, 0819ms total)
T2970 007:464 JLINK_ReadReg(R11)  returns 0x00000000 (0000ms, 0819ms total)
T2970 007:464 JLINK_ReadReg(R12)  returns 0x00000008 (0000ms, 0819ms total)
T2970 007:464 JLINK_ReadReg(R13 (SP))  returns 0x200007A8 (0000ms, 0819ms total)
T2970 007:464 JLINK_ReadReg(R14)  returns 0x080024BB (0000ms, 0819ms total)
T2970 007:464 JLINK_ReadReg(R15 (PC))  returns 0x080005A6 (0000ms, 0819ms total)
T2970 007:464 JLINK_ReadReg(XPSR)  returns 0x81000000 (0000ms, 0819ms total)
T2970 007:464 JLINK_ReadReg(MSP)  returns 0x200007A8 (0000ms, 0819ms total)
T2970 007:464 JLINK_ReadReg(PSP)  returns 0x20000800 (0000ms, 0819ms total)
T2970 007:465 JLINK_ReadReg(CFBP)  returns 0x00000000 (0000ms, 0820ms total)
T1270 007:465 JLINK_ReadMem (0x200007AC, 0x0004 Bytes, ...) -- CPU_ReadMem(64 bytes @ 0x20000780) -- Updating C cache (64 bytes @ 0x20000780) -- Read from C cache (4 bytes @ 0x200007AC) -- Data:  DB 01 00 08  returns 0x00 (0002ms, 0822ms total)
T1270 007:467 JLINK_ReadMemU32(0xE0001004, 0x0001 Items, ...) -- CPU_ReadMem(4 bytes @ 0xE0001004) -- Data:  0D 22 00 00  returns 0x01 (0001ms, 0823ms total)
T1270 007:468 JLINK_ReadMem (0x2000012C, 0x0001 Bytes, ...) -- CPU_ReadMem(64 bytes @ 0x20000100) -- Updating C cache (64 bytes @ 0x20000100) -- Read from C cache (1 bytes @ 0x2000012C) -- Data:  00  returns 0x00 (0002ms, 0825ms total)
T1270 007:470 JLINK_ReadMem (0x080005A6, 0x0002 Bytes, ...) -- CPU_ReadMem(64 bytes @ 0x08000580) -- Updating C cache (64 bytes @ 0x08000580) -- Read from C cache (2 bytes @ 0x080005A6) -- Data:  02 F0  returns 0x00 (0002ms, 0827ms total)
T1270 007:472 JLINK_ReadMem (0x080005A8, 0x003C Bytes, ...) -- CPU_ReadMem(64 bytes @ 0x080005C0) -- Updating C cache (64 bytes @ 0x080005C0) -- Read from C cache (60 bytes @ 0x080005A8) -- Data:  0B F8 41 F6 1F 41 42 F2 0F 70 02 F0 DB FB 02 F0 ...  returns 0x00 (0002ms, 0829ms total)
T2970 007:587 JLINK_SetBPEx(Addr = 0x080005AA, Type = 0xFFFFFFF2)  returns 0x00000006 (0000ms, 0829ms total)
T2970 007:587 JLINK_Go() -- CPU_WriteMem(4 bytes @ 0xE0002000) -- CPU_WriteMem(4 bytes @ 0xE0002008) (0003ms, 0832ms total)
T2970 007:691 JLINK_IsHalted()  returns TRUE (0004ms, 0837ms total)
T2970 007:695 JLINK_Halt()  returns 0x00 (0000ms, 0833ms total)
T2970 007:695 JLINK_IsHalted()  returns TRUE (0000ms, 0833ms total)
T2970 007:695 JLINK_IsHalted()  returns TRUE (0000ms, 0833ms total)
T2970 007:695 JLINK_IsHalted()  returns TRUE (0001ms, 0834ms total)
T2970 007:696 JLINK_ReadReg(R15 (PC))  returns 0x080005AA (0000ms, 0833ms total)
T2970 007:696 JLINK_ReadReg(XPSR)  returns 0x81000000 (0000ms, 0833ms total)
T2970 007:696 JLINK_ClrBPEx(BPHandle = 0x00000006)  returns 0x00 (0000ms, 0833ms total)
T2970 007:696 JLINK_ReadMemU32(0xE000ED30, 0x0001 Items, ...) -- CPU_ReadMem(4 bytes @ 0xE000ED30) -- Data:  03 00 00 00  returns 0x01 (0001ms, 0834ms total)
T2970 007:697 JLINK_ReadMemU32(0xE0001028, 0x0001 Items, ...) -- CPU_ReadMem(4 bytes @ 0xE0001028) -- Data:  00 00 00 00  returns 0x01 (0001ms, 0835ms total)
T2970 007:698 JLINK_ReadMemU32(0xE0001038, 0x0001 Items, ...) -- CPU_ReadMem(4 bytes @ 0xE0001038) -- Data:  00 02 00 00  returns 0x01 (0001ms, 0836ms total)
T2970 007:699 JLINK_ReadMemU32(0xE0001048, 0x0001 Items, ...) -- CPU_ReadMem(4 bytes @ 0xE0001048) -- Data:  00 00 00 00  returns 0x01 (0001ms, 0837ms total)
T2970 007:700 JLINK_ReadMemU32(0xE0001058, 0x0001 Items, ...) -- CPU_ReadMem(4 bytes @ 0xE0001058) -- Data:  00 00 00 00  returns 0x01 (0001ms, 0838ms total)
T2970 007:701 JLINK_ReadReg(R0)  returns 0x00000008 (0001ms, 0839ms total)
T2970 007:702 JLINK_ReadReg(R1)  returns 0x200007A0 (0000ms, 0839ms total)
T2970 007:702 JLINK_ReadReg(R2)  returns 0x40010800 (0000ms, 0839ms total)
T2970 007:702 JLINK_ReadReg(R3)  returns 0x28000001 (0000ms, 0839ms total)
T2970 007:702 JLINK_ReadReg(R4)  returns 0x00000000 (0000ms, 0839ms total)
T2970 007:702 JLINK_ReadReg(R5)  returns 0x20000150 (0000ms, 0839ms total)
T2970 007:702 JLINK_ReadReg(R6)  returns 0x00000000 (0000ms, 0839ms total)
T2970 007:702 JLINK_ReadReg(R7)  returns 0x00000000 (0000ms, 0839ms total)
T2970 007:702 JLINK_ReadReg(R8)  returns 0x00000000 (0000ms, 0839ms total)
T2970 007:702 JLINK_ReadReg(R9)  returns 0x20000160 (0000ms, 0839ms total)
T2970 007:702 JLINK_ReadReg(R10)  returns 0x0800B88C (0001ms, 0840ms total)
T2970 007:703 JLINK_ReadReg(R11)  returns 0x00000000 (0000ms, 0840ms total)
T2970 007:703 JLINK_ReadReg(R12)  returns 0x00000001 (0000ms, 0840ms total)
T2970 007:703 JLINK_ReadReg(R13 (SP))  returns 0x200007A8 (0000ms, 0840ms total)
T2970 007:703 JLINK_ReadReg(R14)  returns 0x08002611 (0000ms, 0840ms total)
T2970 007:703 JLINK_ReadReg(R15 (PC))  returns 0x080005AA (0000ms, 0840ms total)
T2970 007:703 JLINK_ReadReg(XPSR)  returns 0x81000000 (0000ms, 0840ms total)
T2970 007:703 JLINK_ReadReg(MSP)  returns 0x200007A8 (0000ms, 0840ms total)
T2970 007:703 JLINK_ReadReg(PSP)  returns 0x20000800 (0000ms, 0840ms total)
T2970 007:703 JLINK_ReadReg(CFBP)  returns 0x00000000 (0000ms, 0840ms total)
T1270 007:704 JLINK_ReadMem (0x200007AC, 0x0004 Bytes, ...) -- CPU_ReadMem(64 bytes @ 0x20000780) -- Updating C cache (64 bytes @ 0x20000780) -- Read from C cache (4 bytes @ 0x200007AC) -- Data:  DB 01 00 08  returns 0x00 (0001ms, 0841ms total)
T1270 007:706 JLINK_ReadMemU32(0xE0001004, 0x0001 Items, ...) -- CPU_ReadMem(4 bytes @ 0xE0001004) -- Data:  7D 26 00 00  returns 0x01 (0000ms, 0841ms total)
T1270 007:707 JLINK_ReadMem (0x2000012C, 0x0001 Bytes, ...) -- CPU_ReadMem(64 bytes @ 0x20000100) -- Updating C cache (64 bytes @ 0x20000100) -- Read from C cache (1 bytes @ 0x2000012C) -- Data:  00  returns 0x00 (0001ms, 0842ms total)
T1270 007:709 JLINK_ReadMem (0x080005AA, 0x0002 Bytes, ...) -- CPU_ReadMem(64 bytes @ 0x08000580) -- Updating C cache (64 bytes @ 0x08000580) -- Read from C cache (2 bytes @ 0x080005AA) -- Data:  41 F6  returns 0x00 (0001ms, 0843ms total)
T1270 007:710 JLINK_ReadMem (0x080005AC, 0x003C Bytes, ...) -- CPU_ReadMem(64 bytes @ 0x080005C0) -- Updating C cache (64 bytes @ 0x080005C0) -- Read from C cache (60 bytes @ 0x080005AC) -- Data:  1F 41 42 F2 0F 70 02 F0 DB FB 02 F0 CB F8 02 F0 ...  returns 0x00 (0002ms, 0845ms total)
T2970 007:810 JLINK_Step() -- Read from C cache (2 bytes @ 0x080005AA) -- Read from C cache (2 bytes @ 0x080005AC) -- Not simulated -- CPU_WriteMem(4 bytes @ 0xE0002008)  returns 0x00 (0005ms, 0850ms total)
T2970 007:816 JLINK_ReadReg(R15 (PC))  returns 0x080005AE (0000ms, 0850ms total)
T2970 007:816 JLINK_ReadReg(XPSR)  returns 0x81000000 (0000ms, 0850ms total)
T2970 007:816 JLINK_ReadReg(R0)  returns 0x00000008 (0000ms, 0850ms total)
T2970 007:816 JLINK_ReadReg(R1)  returns 0x00001C1F (0000ms, 0850ms total)
T2970 007:816 JLINK_ReadReg(R2)  returns 0x40010800 (0000ms, 0850ms total)
T2970 007:816 JLINK_ReadReg(R3)  returns 0x28000001 (0000ms, 0850ms total)
T2970 007:816 JLINK_ReadReg(R4)  returns 0x00000000 (0000ms, 0850ms total)
T2970 007:816 JLINK_ReadReg(R5)  returns 0x20000150 (0000ms, 0850ms total)
T2970 007:816 JLINK_ReadReg(R6)  returns 0x00000000 (0000ms, 0850ms total)
T2970 007:817 JLINK_ReadReg(R7)  returns 0x00000000 (0000ms, 0851ms total)
T2970 007:817 JLINK_ReadReg(R8)  returns 0x00000000 (0000ms, 0851ms total)
T2970 007:817 JLINK_ReadReg(R9)  returns 0x20000160 (0000ms, 0851ms total)
T2970 007:817 JLINK_ReadReg(R10)  returns 0x0800B88C (0000ms, 0851ms total)
T2970 007:817 JLINK_ReadReg(R11)  returns 0x00000000 (0000ms, 0851ms total)
T2970 007:817 JLINK_ReadReg(R12)  returns 0x00000001 (0000ms, 0851ms total)
T2970 007:817 JLINK_ReadReg(R13 (SP))  returns 0x200007A8 (0000ms, 0851ms total)
T2970 007:817 JLINK_ReadReg(R14)  returns 0x08002611 (0000ms, 0851ms total)
T2970 007:817 JLINK_ReadReg(R15 (PC))  returns 0x080005AE (0000ms, 0851ms total)
T2970 007:817 JLINK_ReadReg(XPSR)  returns 0x81000000 (0000ms, 0851ms total)
T2970 007:817 JLINK_ReadReg(MSP)  returns 0x200007A8 (0001ms, 0852ms total)
T2970 007:818 JLINK_ReadReg(PSP)  returns 0x20000800 (0000ms, 0852ms total)
T2970 007:818 JLINK_ReadReg(CFBP)  returns 0x00000000 (0000ms, 0852ms total)
T1270 007:819 JLINK_ReadMem (0x200007AC, 0x0004 Bytes, ...) -- CPU_ReadMem(64 bytes @ 0x20000780) -- Updating C cache (64 bytes @ 0x20000780) -- Read from C cache (4 bytes @ 0x200007AC) -- Data:  DB 01 00 08  returns 0x00 (0001ms, 0853ms total)
T1270 007:820 JLINK_ReadMemU32(0xE0001004, 0x0001 Items, ...) -- CPU_ReadMem(4 bytes @ 0xE0001004) -- Data:  7E 26 00 00  returns 0x01 (0001ms, 0854ms total)
T1270 007:821 JLINK_ReadMem (0x2000012C, 0x0001 Bytes, ...) -- CPU_ReadMem(64 bytes @ 0x20000100) -- Updating C cache (64 bytes @ 0x20000100) -- Read from C cache (1 bytes @ 0x2000012C) -- Data:  00  returns 0x00 (0002ms, 0856ms total)
T1270 007:824 JLINK_ReadMem (0x080005AE, 0x0002 Bytes, ...) -- CPU_ReadMem(64 bytes @ 0x08000580) -- Updating C cache (64 bytes @ 0x08000580) -- Read from C cache (2 bytes @ 0x080005AE) -- Data:  42 F2  returns 0x00 (0002ms, 0858ms total)
T1270 007:826 JLINK_ReadMem (0x080005B0, 0x003C Bytes, ...) -- CPU_ReadMem(64 bytes @ 0x080005C0) -- Updating C cache (64 bytes @ 0x080005C0) -- Read from C cache (60 bytes @ 0x080005B0) -- Data:  0F 70 02 F0 DB FB 02 F0 CB F8 02 F0 7F F8 03 E0 ...  returns 0x00 (0002ms, 0860ms total)
T2970 008:106 JLINK_Step() -- Read from C cache (2 bytes @ 0x080005AE) -- Read from C cache (2 bytes @ 0x080005B0) -- Not simulated  returns 0x00 (0004ms, 0864ms total)
T2970 008:110 JLINK_ReadReg(R15 (PC))  returns 0x080005B2 (0000ms, 0864ms total)
T2970 008:110 JLINK_ReadReg(XPSR)  returns 0x81000000 (0000ms, 0864ms total)
T2970 008:111 JLINK_ReadReg(R0)  returns 0x0000270F (0000ms, 0864ms total)
T2970 008:111 JLINK_ReadReg(R1)  returns 0x00001C1F (0000ms, 0864ms total)
T2970 008:111 JLINK_ReadReg(R2)  returns 0x40010800 (0000ms, 0864ms total)
T2970 008:111 JLINK_ReadReg(R3)  returns 0x28000001 (0000ms, 0864ms total)
T2970 008:111 JLINK_ReadReg(R4)  returns 0x00000000 (0000ms, 0864ms total)
T2970 008:111 JLINK_ReadReg(R5)  returns 0x20000150 (0000ms, 0864ms total)
T2970 008:111 JLINK_ReadReg(R6)  returns 0x00000000 (0000ms, 0864ms total)
T2970 008:111 JLINK_ReadReg(R7)  returns 0x00000000 (0000ms, 0864ms total)
T2970 008:111 JLINK_ReadReg(R8)  returns 0x00000000 (0000ms, 0864ms total)
T2970 008:111 JLINK_ReadReg(R9)  returns 0x20000160 (0000ms, 0864ms total)
T2970 008:112 JLINK_ReadReg(R10)  returns 0x0800B88C (0000ms, 0865ms total)
T2970 008:112 JLINK_ReadReg(R11)  returns 0x00000000 (0000ms, 0865ms total)
T2970 008:112 JLINK_ReadReg(R12)  returns 0x00000001 (0000ms, 0865ms total)
T2970 008:112 JLINK_ReadReg(R13 (SP))  returns 0x200007A8 (0000ms, 0865ms total)
T2970 008:112 JLINK_ReadReg(R14)  returns 0x08002611 (0001ms, 0866ms total)
T2970 008:113 JLINK_ReadReg(R15 (PC))  returns 0x080005B2 (0000ms, 0866ms total)
T2970 008:113 JLINK_ReadReg(XPSR)  returns 0x81000000 (0000ms, 0866ms total)
T2970 008:113 JLINK_ReadReg(MSP)  returns 0x200007A8 (0000ms, 0866ms total)
T2970 008:113 JLINK_ReadReg(PSP)  returns 0x20000800 (0000ms, 0866ms total)
T2970 008:113 JLINK_ReadReg(CFBP)  returns 0x00000000 (0000ms, 0866ms total)
T1270 008:114 JLINK_ReadMem (0x200007AC, 0x0004 Bytes, ...) -- CPU_ReadMem(64 bytes @ 0x20000780) -- Updating C cache (64 bytes @ 0x20000780) -- Read from C cache (4 bytes @ 0x200007AC) -- Data:  DB 01 00 08  returns 0x00 (0001ms, 0867ms total)
T1270 008:116 JLINK_ReadMemU32(0xE0001004, 0x0001 Items, ...) -- CPU_ReadMem(4 bytes @ 0xE0001004) -- Data:  7F 26 00 00  returns 0x01 (0000ms, 0868ms total)
